Circuit: * C:\Users\dtori\OneDrive\Escritorio\UC3M\CUARTO\vhdl_labs\analog_lab\LTSpice_models\entregable_23_24_estudiantes.asc

Direct Newton iteration for .op point succeeded.
Semiconductor Device Operating Points:
                        --- BSIM4 MOSFETS ---
Name:      m1          m2          m7          m6          m8
Model:    n_50n       n_50n       n_50n       n_50n       n_50n
Id:     -4.59e-04   -4.59e-04   -9.18e-04   -1.50e-04   -1.57e-04
Vgs:    -4.00e-03   -3.73e-03    1.89e-01    0.00e+00   -1.17e-01
Vds:    -4.19e-01   -4.19e-01   -1.85e-01   -3.74e-01   -4.90e-01
Vbs:    -4.19e-01   -4.19e-01   -1.85e-01   -3.74e-01   -4.90e-01
Vth:     2.95e-01    2.95e-01    2.95e-01    2.95e-01    2.94e-01
Vdsat:   1.25e-01    1.25e-01    1.01e-01    1.01e-01    1.01e-01
Gm:      4.68e-03    4.68e-03    1.18e-02    1.89e-03    1.96e-03
Gds:     1.56e-04    1.56e-04    5.55e-04    5.97e-05    5.85e-05
Gmb      1.48e-03    1.48e-03    3.55e-03    5.74e-04    5.94e-04
Cbd:     3.40e-14    3.40e-14    1.20e-13    1.80e-14    1.80e-14
Cbs:     3.03e-14    3.03e-14    1.13e-13    1.62e-14    1.58e-14

Name:      m3          m4          m5
Model:    p_50n       p_50n       p_50n
Id:      4.59e-04    4.59e-04    1.57e-04
Vgs:     0.00e+00    2.71e-04    1.13e-01
Vds:     3.96e-01    3.96e-01    5.10e-01
Vbs:     3.96e-01    3.96e-01    5.10e-01
Vth:    -2.78e-01   -2.78e-01   -2.78e-01
Vdsat:  -1.39e-01   -1.39e-01   -1.40e-01
Gm:      4.97e-03    4.97e-03    1.69e-03
Gds:     9.66e-05    9.66e-05    2.91e-05
Gmb      1.63e-03    1.63e-03    5.55e-04
Cbd:     1.02e-13    1.02e-13    3.40e-14
Cbs:     9.14e-14    9.14e-14    2.97e-14



Date: Thu Apr 18 17:16:10 2024
Total elapsed time: 0.086 seconds.

tnom = 27
temp = 27
method = trap
totiter = 12
traniter = 0
tranpoints = 0
accept = 0
rejected = 0
matrix size = 45
fillins = 2
solver = Normal
Avg thread counts: 8.0/0.0/8.0/8.0
Matrix Compiler1: 5.36 KB object code size
Matrix Compiler2: 4.97 KB object code size
